
**** 08/31/16 14:14:33 ****** PSpice 17.2.0 (March 2016) ****** ID# 0 ********

 ** Profile: "SCHEMATIC1-time"  [ C:\Users\N\Documents\Orcad projects\Plethysmograph_amp_blocks_filter_TS\plethysmograph_amp_blocks_f


 ****     CIRCUIT DESCRIPTION


******************************************************************************




** Creating circuit file "time.cir" 
** WARNING: THIS AUTOMATICALLY GENERATED FILE MAY BE OVERWRITTEN BY SUBSEQUENT SIMULATIONS

*Libraries: 
* Profile Libraries :
* Local Libraries :
* From [PSPICE NETLIST] section of C:\Cadence\SPB_Data\cdssetup\OrCAD_PSpice\17.2.0\PSpice.ini file:
.lib "nom.lib" 
.lib "C:\Cadence\Company\OrCAD_PSpice\Models\pspice_demokit.lib" 
.lib "C:\Cadence\Company\OrCAD_PSpice\Models\sample_models.lib" 

*Analysis directives: 
.TRAN  0 3 0 
.OPTIONS ADVCONV
.PROBE64 V(alias(*)) I(alias(*)) W(alias(*)) D(alias(*)) NOISE(alias(*)) 
.INC "..\SCHEMATIC1.net" 



**** INCLUDING SCHEMATIC1.net ****
* source PLETHYSMOGRAPH_AMP_BLOCKS_FILTER_TS
V_V1         N06746 0   PWL   
+ REPEAT FOREVER  
+ FILE "C:\Users\N\Documents\GitHub\Plethysmograph\TEK0003formatted_crop.csv" 
+ ENDREPEAT
E_GAIN1         N07596 0 VALUE {1E1 * V(N06754)}
R_R4         OUT 5V  1k TC=0,0 
R_R16         N06610 N09169  10k TC=0,0 
C_C6         0 N06610  10uF  TC=0,0 
X_U2         N07605 N06610 VCC 0 OUT LM293/5_1/TI
R_R5         N07125 VCC  82k TC=0,0 
V_V2         VCC 0 9Vdc
C_C5         0 N07125  100nF  TC=0,0 
X_U3A         N07125 5V VCC 0 5V TL074/301/TI
R_R6         0 N07125  100k TC=0,0 
C_C2         0 VCC  100nF  TC=0,0 
R_R17         N07605 N07596  10k TC=0,0 
R_R20         OUT N07605  220k TC=0,0 
C_C7         N09169 N07596  2.2uF  TC=0,0 
C_C4         N06754 N29302 C_C4 50u  TC=0,0 
.model        C_C4 CAP C=1 DEV=5% TC1=0 TC2=0 VC1=0 VC2=0
X_U1B         N29226 N29302 VCC 0 N06754 LM324
C_C3         N29302 N292641 C_C3 50u  TC=0,0 
.model        C_C3 CAP C=1 DEV=5% TC1=0 TC2=0 VC1=0 VC2=0
R_R21         N29302 N06754 R_R21 910 TC=0,0 
.model        R_R21 RES R=1 DEV=5% TC1=0 TC2=0
R_R3         N292641 N06746 R_R3 6.37k TC=0,0 
.model        R_R3 RES R=1 DEV=5% TC1=0 TC2=0
R_R9         5V N29226  10k TC=0,0 

**** RESUMING time.cir ****
.END

**** 08/31/16 14:14:33 ****** PSpice 17.2.0 (March 2016) ****** ID# 0 ********

 ** Profile: "SCHEMATIC1-time"  [ C:\Users\N\Documents\Orcad projects\Plethysmograph_amp_blocks_filter_TS\plethysmograph_amp_blocks_f


 ****     Diode MODEL PARAMETERS


******************************************************************************




               X_U2.DX         X_U3A.DX        X_U1B.dx        X_U1B.dy        
          IS  800.000000E-18  800.000000E-18  800.000000E-18  800.000000E-18 
          RS                                    1               1.000000E-03 
         CJO                                                   10.000000E-12 


**** 08/31/16 14:14:33 ****** PSpice 17.2.0 (March 2016) ****** ID# 0 ********

 ** Profile: "SCHEMATIC1-time"  [ C:\Users\N\Documents\Orcad projects\Plethysmograph_amp_blocks_filter_TS\plethysmograph_amp_blocks_f


 ****     BJT MODEL PARAMETERS


******************************************************************************




               X_U2.QIN        X_U2.QMI        X_U2.QMO        X_U2.QOC        
               PNP             NPN             NPN             NPN             
       LEVEL    1               1               1               1            
          IS  800.000000E-18  800.000000E-18  800.000000E-18  800.000000E-18 
          BF    2.000000E+03    1.002000E+03    1.000000E+03   20.290000E+03 
          NF    1               1               1               1            
          BR    1               1               1               1            
          NR    1               1               1               1            
         ISS    0               0               0               0            
          RE    0               0               0               0            
          RC    0               0               0               0            
         CJE    0               0               0               0            
         VJE     .75             .75             .75             .75         
         CJC    0               0               1.000000E-15    1.000000E-15 
         VJC     .75             .75             .75             .75         
         MJC     .33             .33             .33             .33         
        XCJC    1               1               1               1            
         CJS    0               0               0               0            
         VJS     .75             .75             .75             .75         
          TF                                                  942.600000E-12 
          TR                                  807.400000E-09  543.800000E-09 
          KF    0               0               0               0            
          AF    1               1               1               1            
          CN    2.2             2.42            2.42            2.42         
           D     .52             .87             .87             .87         


               X_U1B.qx        
               PNP             
       LEVEL    1            
          IS  800.000000E-18 
          BF  166.7          
          NF    1            
          BR    1            
          NR    1            
         ISS    0            
          RE    0            
          RC    0            
         CJE    0            
         VJE     .75         
         CJC    0            
         VJC     .75         
         MJC     .33         
        XCJC    1            
         CJS    0            
         VJS     .75         
          KF    0            
          AF    1            
          CN    2.2          
           D     .52         


**** 08/31/16 14:14:33 ****** PSpice 17.2.0 (March 2016) ****** ID# 0 ********

 ** Profile: "SCHEMATIC1-time"  [ C:\Users\N\Documents\Orcad projects\Plethysmograph_amp_blocks_filter_TS\plethysmograph_amp_blocks_f


 ****     Junction FET MODEL PARAMETERS


******************************************************************************




               X_U3A.JX        
               PJF             
         VTO   -1            
        BETA  270.100000E-06 
          IS   15.000000E-12 


**** 08/31/16 14:14:33 ****** PSpice 17.2.0 (March 2016) ****** ID# 0 ********

 ** Profile: "SCHEMATIC1-time"  [ C:\Users\N\Documents\Orcad projects\Plethysmograph_amp_blocks_filter_TS\plethysmograph_amp_blocks_f


 ****     Resistor MODEL PARAMETERS


******************************************************************************




               R_R21           R_R3            
           R    1               1            


**** 08/31/16 14:14:33 ****** PSpice 17.2.0 (March 2016) ****** ID# 0 ********

 ** Profile: "SCHEMATIC1-time"  [ C:\Users\N\Documents\Orcad projects\Plethysmograph_amp_blocks_filter_TS\plethysmograph_amp_blocks_f


 ****     Capacitor MODEL PARAMETERS


******************************************************************************




               C_C4            C_C3            
           C    1               1            


**** 08/31/16 14:14:33 ****** PSpice 17.2.0 (March 2016) ****** ID# 0 ********

 ** Profile: "SCHEMATIC1-time"  [ C:\Users\N\Documents\Orcad projects\Plethysmograph_amp_blocks_filter_TS\plethysmograph_amp_blocks_f


 ****     Current Controlled Switch MODEL PARAMETERS


******************************************************************************




               X_U1B.sw2       X_U1B.sw1       X_U1B.sw3       X_U1B.sw4       
         RON    1               1               1               1            
        ROFF   10.000000E+06   10.000000E+06   10.000000E+06   10.000000E+06 
         ION    0              -1.000000E-06   -1.000000E-06    0            
        IOFF   -1.000000E-06    0               0              -1.000000E-06 


**** 08/31/16 14:14:33 ****** PSpice 17.2.0 (March 2016) ****** ID# 0 ********

 ** Profile: "SCHEMATIC1-time"  [ C:\Users\N\Documents\Orcad projects\Plethysmograph_amp_blocks_filter_TS\plethysmograph_amp_blocks_f


 ****     INITIAL TRANSIENT SOLUTION       TEMPERATURE =   27.000 DEG C


******************************************************************************



 NODE   VOLTAGE     NODE   VOLTAGE     NODE   VOLTAGE     NODE   VOLTAGE


(   5V)    4.9450  (  OUT)     .1027  (  VCC)    9.0000  (N06610)   47.4560     

(N06746)    4.9720 (N06754)    4.9451 (N07125)    4.9451 (N07596)   49.4510     

(N07605)   47.3060 (N09169)   47.4560 (N29226)    4.9455 (N29302)    4.9452     

(X_U2.7)   48.7170 (X_U2.8)     .5107 (X_U2.9)     .7633 (N292641)    4.9720    

(X_U1B.6)-83.90E-06                   (X_U1B.7)    4.9451                       

(X_U1B.8)    4.9451                   (X_U1B.9)    0.0000                       

(X_U1B.a)    9.0000                   (X_U1B.b) 49.38E-09                       

(X_U2.10)     .7633                   (X_U2.11)     .7633                       

(X_U2.21)   48.0560                   (X_U2.22)   48.2060                       

(X_U3A.6)-271.9E-06                   (X_U3A.7)    5.6714                       

(X_U3A.8)    5.6714                   (X_U3A.9)    0.0000                       

(X_U1B.10)    5.5529                  (X_U1B.11)     .0397                      

(X_U1B.12)     .0394                  (X_U1B.13)    5.5390                      

(X_U1B.14)    5.5391                  (X_U1B.53)    7.5000                      

(X_U1B.54)     .8220                  (X_U1B.90)-44.92E-06                      

(X_U1B.91)   40.0000                  (X_U1B.92)  -40.0000                      

(X_U1B.99)    4.5000                  (X_U3A.10)    4.5458                      

(X_U3A.11)     .3447                  (X_U3A.12)     .3447                      

(X_U3A.53)    6.8000                  (X_U3A.54)    2.2000                      

(X_U3A.90)    4.8423                  (X_U3A.91)   25.0000                      

(X_U3A.92)  -25.0000                  (X_U3A.99)    4.5000                  




    VOLTAGE SOURCE CURRENTS
    NAME         CURRENT

    V_V1         0.000E+00
    V_V2        -5.646E-03
    X_U2.VI1     4.967E-08
    X_U2.VI2    -8.674E-19
    X_U2.V1      9.935E-05
    X_U3A.VB    -2.719E-09
    X_U3A.VC     5.867E-12
    X_U3A.VE     8.681E-12
    X_U3A.VLIM   4.842E-03
    X_U3A.VLP   -6.375E-11
    X_U3A.VLN   -9.437E-11
    X_U1B.vb    -8.390E-10
    X_U1B.vc     8.080E-12
    X_U1B.ve     1.302E-11
    X_U1B.vlim  -4.492E-08
    X_U1B.vlp   -1.265E-10
    X_U1B.vln   -1.265E-10

    TOTAL POWER DISSIPATION   5.08E-02  WATTS



          JOB CONCLUDED

**** 08/31/16 14:14:33 ****** PSpice 17.2.0 (March 2016) ****** ID# 0 ********

 ** Profile: "SCHEMATIC1-time"  [ C:\Users\N\Documents\Orcad projects\Plethysmograph_amp_blocks_filter_TS\plethysmograph_amp_blocks_f


 ****     JOB STATISTICS SUMMARY


******************************************************************************



  Total job time (using Solver 1)   =         .41
