
**** 09/13/16 14:10:24 ****** PSpice 17.2.0 (March 2016) ****** ID# 0 ********

 ** Profile: "SCHEMATIC1-time"  [ C:\Users\N\Documents\GitHub\Plethysmograph\Orcad files\Plethysmograph_amp_blocks_filter_TS\plethysm


 ****     CIRCUIT DESCRIPTION


******************************************************************************




** Creating circuit file "time.cir" 
** WARNING: THIS AUTOMATICALLY GENERATED FILE MAY BE OVERWRITTEN BY SUBSEQUENT SIMULATIONS

*Libraries: 
* Profile Libraries :
* Local Libraries :
* From [PSPICE NETLIST] section of C:\Cadence\SPB_Data\cdssetup\OrCAD_PSpice\17.2.0\PSpice.ini file:
.lib "nom.lib" 
.lib "C:\Cadence\Company\OrCAD_PSpice\Models\pspice_demokit.lib" 
.lib "C:\Cadence\Company\OrCAD_PSpice\Models\sample_models.lib" 

*Analysis directives: 
.TRAN  0 3 0 
.OPTIONS ADVCONV
.PROBE64 V(alias(*)) I(alias(*)) W(alias(*)) D(alias(*)) NOISE(alias(*)) 
.INC "..\SCHEMATIC1.net" 



**** INCLUDING SCHEMATIC1.net ****
* source PLETHYSMOGRAPH_AMP_BLOCKS_FILTER_TS
V_V1         N06746 0   PWL   
+ REPEAT FOREVER  
+ FILE "C:\Users\N\Documents\GitHub\Plethysmograph\TEK0003formatted_crop.csv" 
+ ENDREPEAT
R_R4         OUT 5V  1k TC=0,0 
R_R16         N06610 N09169  10k TC=0,0 
C_C6         5V N06610  10uF  TC=0,0 
X_U2         N07605 N06610 VCC 0 OUT LM293/5_1/TI
R_R5         N07125 VCC  82k TC=0,0 
V_V2         VCC 0 9Vdc
C_C5         0 N07125  100nF  TC=0,0 
X_U3A         N07125 5V VCC 0 5V TL074/301/TI
R_R6         0 N07125  100k TC=0,0 
C_C2         0 VCC  100nF  TC=0,0 
R_R17         N07605 N07596  10k TC=0,0 
C_C7         N09169 N07596  2.2uF  TC=0,0 
C_C1         N06746 N43229 C_C1 0.001  TC=0,0 
.model        C_C1 CAP C=1 DEV=5% TC1=0 TC2=0 VC1=0 VC2=0
R_R34         N43429 N43443 R_R34 6k TC=0,0 
.model        R_R34 RES R=1 DEV=5% TC1=0 TC2=0
R_R18         N43219 N43429 R_R18 6k TC=0,0 
.model        R_R18 RES R=1 DEV=5% TC1=0 TC2=0
X_U8C         N43443 N43391 VCC 0 N43391 LM324
C_C17         N43391 N43429 C_C17 10u  TC=0,0 
.model        C_C17 CAP C=1 DEV=5% TC1=0 TC2=0 VC1=0 VC2=0
C_C13         5V N43443 C_C13 10u  TC=0,0 
.model        C_C13 CAP C=1 DEV=5% TC1=0 TC2=0 VC1=0 VC2=0
R_R1         5V N43229 R_R1 510 TC=0,0 
.model        R_R1 RES R=1 DEV=5% TC1=0 TC2=0
X_U8A         N43229 N43219 VCC 0 N43219 LM324
X_U9A         N43391 N47818 VCC 0 N07596 LM324
R_R35         N47818 N07596  22k TC=0,0 
R_R36         5V N47818  1k TC=0,0 

**** RESUMING time.cir ****
.END

**** 09/13/16 14:10:24 ****** PSpice 17.2.0 (March 2016) ****** ID# 0 ********

 ** Profile: "SCHEMATIC1-time"  [ C:\Users\N\Documents\GitHub\Plethysmograph\Orcad files\Plethysmograph_amp_blocks_filter_TS\plethysm


 ****     Diode MODEL PARAMETERS


******************************************************************************




               X_U2.DX         X_U3A.DX        X_U8C.dx        X_U8C.dy        
          IS  800.000000E-18  800.000000E-18  800.000000E-18  800.000000E-18 
          RS                                    1               1.000000E-03 
         CJO                                                   10.000000E-12 


               X_U8A.dx        X_U8A.dy        X_U9A.dx        X_U9A.dy        
          IS  800.000000E-18  800.000000E-18  800.000000E-18  800.000000E-18 
          RS    1               1.000000E-03    1               1.000000E-03 
         CJO                   10.000000E-12                   10.000000E-12 


**** 09/13/16 14:10:24 ****** PSpice 17.2.0 (March 2016) ****** ID# 0 ********

 ** Profile: "SCHEMATIC1-time"  [ C:\Users\N\Documents\GitHub\Plethysmograph\Orcad files\Plethysmograph_amp_blocks_filter_TS\plethysm


 ****     BJT MODEL PARAMETERS


******************************************************************************




               X_U2.QIN        X_U2.QMI        X_U2.QMO        X_U2.QOC        
               PNP             NPN             NPN             NPN             
       LEVEL    1               1               1               1            
          IS  800.000000E-18  800.000000E-18  800.000000E-18  800.000000E-18 
          BF    2.000000E+03    1.002000E+03    1.000000E+03   20.290000E+03 
          NF    1               1               1               1            
          BR    1               1               1               1            
          NR    1               1               1               1            
         ISS    0               0               0               0            
          RE    0               0               0               0            
          RC    0               0               0               0            
         CJE    0               0               0               0            
         VJE     .75             .75             .75             .75         
         CJC    0               0               1.000000E-15    1.000000E-15 
         VJC     .75             .75             .75             .75         
         MJC     .33             .33             .33             .33         
        XCJC    1               1               1               1            
         CJS    0               0               0               0            
         VJS     .75             .75             .75             .75         
          TF                                                  942.600000E-12 
          TR                                  807.400000E-09  543.800000E-09 
          KF    0               0               0               0            
          AF    1               1               1               1            
          CN    2.2             2.42            2.42            2.42         
           D     .52             .87             .87             .87         


               X_U8C.qx        X_U8A.qx        X_U9A.qx        
               PNP             PNP             PNP             
       LEVEL    1               1               1            
          IS  800.000000E-18  800.000000E-18  800.000000E-18 
          BF  166.7           166.7           166.7          
          NF    1               1               1            
          BR    1               1               1            
          NR    1               1               1            
         ISS    0               0               0            
          RE    0               0               0            
          RC    0               0               0            
         CJE    0               0               0            
         VJE     .75             .75             .75         
         CJC    0               0               0            
         VJC     .75             .75             .75         
         MJC     .33             .33             .33         
        XCJC    1               1               1            
         CJS    0               0               0            
         VJS     .75             .75             .75         
          KF    0               0               0            
          AF    1               1               1            
          CN    2.2             2.2             2.2          
           D     .52             .52             .52         


**** 09/13/16 14:10:24 ****** PSpice 17.2.0 (March 2016) ****** ID# 0 ********

 ** Profile: "SCHEMATIC1-time"  [ C:\Users\N\Documents\GitHub\Plethysmograph\Orcad files\Plethysmograph_amp_blocks_filter_TS\plethysm


 ****     Junction FET MODEL PARAMETERS


******************************************************************************




               X_U3A.JX        
               PJF             
         VTO   -1            
        BETA  270.100000E-06 
          IS   15.000000E-12 


**** 09/13/16 14:10:24 ****** PSpice 17.2.0 (March 2016) ****** ID# 0 ********

 ** Profile: "SCHEMATIC1-time"  [ C:\Users\N\Documents\GitHub\Plethysmograph\Orcad files\Plethysmograph_amp_blocks_filter_TS\plethysm


 ****     Resistor MODEL PARAMETERS


******************************************************************************




               R_R34           R_R18           R_R1            
           R    1               1               1            


**** 09/13/16 14:10:24 ****** PSpice 17.2.0 (March 2016) ****** ID# 0 ********

 ** Profile: "SCHEMATIC1-time"  [ C:\Users\N\Documents\GitHub\Plethysmograph\Orcad files\Plethysmograph_amp_blocks_filter_TS\plethysm


 ****     Capacitor MODEL PARAMETERS


******************************************************************************




               C_C1            C_C17           C_C13           
           C    1               1               1            


**** 09/13/16 14:10:24 ****** PSpice 17.2.0 (March 2016) ****** ID# 0 ********

 ** Profile: "SCHEMATIC1-time"  [ C:\Users\N\Documents\GitHub\Plethysmograph\Orcad files\Plethysmograph_amp_blocks_filter_TS\plethysm


 ****     Current Controlled Switch MODEL PARAMETERS


******************************************************************************




               X_U8C.sw2       X_U8C.sw1       X_U8C.sw3       X_U8C.sw4       
         RON    1               1               1               1            
        ROFF   10.000000E+06   10.000000E+06   10.000000E+06   10.000000E+06 
         ION    0              -1.000000E-06   -1.000000E-06    0            
        IOFF   -1.000000E-06    0               0              -1.000000E-06 


               X_U8A.sw2       X_U8A.sw1       X_U8A.sw3       X_U8A.sw4       
         RON    1               1               1               1            
        ROFF   10.000000E+06   10.000000E+06   10.000000E+06   10.000000E+06 
         ION    0              -1.000000E-06   -1.000000E-06    0            
        IOFF   -1.000000E-06    0               0              -1.000000E-06 


               X_U9A.sw2       X_U9A.sw1       X_U9A.sw3       X_U9A.sw4       
         RON    1               1               1               1            
        ROFF   10.000000E+06   10.000000E+06   10.000000E+06   10.000000E+06 
         ION    0              -1.000000E-06   -1.000000E-06    0            
        IOFF   -1.000000E-06    0               0              -1.000000E-06 


**** 09/13/16 14:10:24 ****** PSpice 17.2.0 (March 2016) ****** ID# 0 ********

 ** Profile: "SCHEMATIC1-time"  [ C:\Users\N\Documents\GitHub\Plethysmograph\Orcad files\Plethysmograph_amp_blocks_filter_TS\plethysm


 ****     INITIAL TRANSIENT SOLUTION       TEMPERATURE =   27.000 DEG C


******************************************************************************



 NODE   VOLTAGE     NODE   VOLTAGE     NODE   VOLTAGE     NODE   VOLTAGE


(   5V)    4.9450  (  OUT)     .1015  (  VCC)    9.0000  (N06610)    5.1698     

(N06746)    4.9720 (N07125)    4.9451 (N07596)    4.9335 (N07605)    4.9340     

(N09169)    5.1698 (N43219)    4.9447 (N43229)    4.9451 (N43391)    4.9449     

(N43429)    4.9450 (N43443)    4.9453 (N47818)    4.9446 (X_U2.7)    6.3449     

(X_U2.8)     .4251 (X_U2.9)     .7623 (X_U2.10)     .7623                       

(X_U2.11)     .7623                   (X_U2.21)    5.6840                       

(X_U2.22)    5.9198                   (X_U3A.6)-269.5E-06                       

(X_U3A.7)    5.6716                   (X_U3A.8)    5.6716                       

(X_U3A.9)    0.0000                   (X_U8A.6)-83.83E-06                       

(X_U8A.7)    4.9447                   (X_U8A.8)    4.9447                       

(X_U8A.9)    0.0000                   (X_U8A.a)    9.0000                       

(X_U8A.b) 128.8E-09                   (X_U8C.6)-83.87E-06                       

(X_U8C.7)    4.9449                   (X_U8C.8)    4.9449                       

(X_U8C.9)    0.0000                   (X_U8C.a)    9.0000                       

(X_U8C.b) 128.8E-09                   (X_U9A.6)-81.71E-06                       

(X_U9A.7)    4.9335                   (X_U9A.8)    4.9335                       

(X_U9A.9)    0.0000                   (X_U9A.a)     .6612                       

(X_U9A.b) 455.8E-06                   (X_U3A.10)    4.5458                      

(X_U3A.11)     .3447                  (X_U3A.12)     .3447                      

(X_U3A.53)    6.8000                  (X_U3A.54)    2.2000                      

(X_U3A.90)    4.8440                  (X_U3A.91)   25.0000                      

(X_U3A.92)  -25.0000                  (X_U3A.99)    4.5000                      

(X_U8A.10)    5.5525                  (X_U8A.11)     .0397                      

(X_U8A.12)     .0394                  (X_U8A.13)    5.5386                      

(X_U8A.14)    5.5387                  (X_U8A.53)    7.5000                      

(X_U8A.54)     .8220                  (X_U8A.90)-89.50E-06                      

(X_U8A.91)   40.0000                  (X_U8A.92)  -40.0000                      

(X_U8A.99)    4.5000                  (X_U8C.10)    5.5527                      

(X_U8C.11)     .0397                  (X_U8C.12)     .0394                      

(X_U8C.13)    5.5388                  (X_U8C.14)    5.5389                      

(X_U8C.53)    7.5000                  (X_U8C.54)     .8220                      

(X_U8C.90)-89.50E-06                  (X_U8C.91)   40.0000                      

(X_U8C.92)  -40.0000                  (X_U8C.99)    4.5000                      

(X_U9A.10)    5.5523                  (X_U9A.11)     .0397                      

(X_U9A.12)     .0394                  (X_U9A.13)    5.5384                      

(X_U9A.14)    5.5386                  (X_U9A.53)    7.5000                      

(X_U9A.54)     .8220                  (X_U9A.90)-552.6E-06                      

(X_U9A.91)   40.0000                  (X_U9A.92)  -40.0000                      

(X_U9A.99)    4.5000                  




    VOLTAGE SOURCE CURRENTS
    NAME         CURRENT

    V_V1         0.000E+00
    V_V2        -8.401E-03
    X_U2.VI1     4.996E-08
    X_U2.VI2     1.084E-19
    X_U2.V1      9.993E-05
    X_U3A.VB    -2.695E-09
    X_U3A.VC     1.856E-12
    X_U3A.VE     2.746E-12
    X_U3A.VLIM   4.844E-03
    X_U3A.VLP   -2.016E-11
    X_U3A.VLN   -2.984E-11
    X_U8C.vb    -8.387E-10
    X_U8C.vc     2.556E-12
    X_U8C.ve     4.011E-12
    X_U8C.vlim  -8.950E-08
    X_U8C.vlp   -4.000E-11
    X_U8C.vln   -4.000E-11
    X_U8A.vb    -8.383E-10
    X_U8A.vc     2.556E-12
    X_U8A.ve     4.011E-12
    X_U8A.vlim  -8.950E-08
    X_U8A.vlp   -4.000E-11
    X_U8A.vln   -4.000E-11
    X_U9A.vb    -8.171E-10
    X_U9A.vc     2.567E-12
    X_U9A.ve     4.000E-12
    X_U9A.vlim  -5.526E-07
    X_U9A.vlp   -4.000E-11
    X_U9A.vln   -4.000E-11

    TOTAL POWER DISSIPATION   7.56E-02  WATTS



          JOB CONCLUDED

**** 09/13/16 14:10:24 ****** PSpice 17.2.0 (March 2016) ****** ID# 0 ********

 ** Profile: "SCHEMATIC1-time"  [ C:\Users\N\Documents\GitHub\Plethysmograph\Orcad files\Plethysmograph_amp_blocks_filter_TS\plethysm


 ****     JOB STATISTICS SUMMARY


******************************************************************************



  Total job time (using Solver 1)   =         .70
