
**** 08/31/16 23:07:33 ****** PSpice 17.2.0 (March 2016) ****** ID# 0 ********

 ** Profile: "SCHEMATIC1-time"  [ C:\Users\N\Documents\GitHub\Plethysmograph\Orcad files\Plethysmograph_amp_blocks_filter_TS\plethysm


 ****     CIRCUIT DESCRIPTION


******************************************************************************




** Creating circuit file "time.cir" 
** WARNING: THIS AUTOMATICALLY GENERATED FILE MAY BE OVERWRITTEN BY SUBSEQUENT SIMULATIONS

*Libraries: 
* Profile Libraries :
* Local Libraries :
* From [PSPICE NETLIST] section of C:\Cadence\SPB_Data\cdssetup\OrCAD_PSpice\17.2.0\PSpice.ini file:
.lib "nom.lib" 
.lib "C:\Cadence\Company\OrCAD_PSpice\Models\pspice_demokit.lib" 
.lib "C:\Cadence\Company\OrCAD_PSpice\Models\sample_models.lib" 

*Analysis directives: 
.TRAN  0 3 0 
.OPTIONS ADVCONV
.PROBE64 V(alias(*)) I(alias(*)) W(alias(*)) D(alias(*)) NOISE(alias(*)) 
.INC "..\SCHEMATIC1.net" 



**** INCLUDING SCHEMATIC1.net ****
* source PLETHYSMOGRAPH_AMP_BLOCKS_FILTER_TS
V_V1         N06746 0   PWL   
+ REPEAT FOREVER  
+ FILE "C:\Users\N\Documents\GitHub\Plethysmograph\TEK0003formatted_crop.csv" 
+ ENDREPEAT
E_GAIN1         N07596 0 VALUE {1E1 * V(N06754)}
R_R4         OUT 5V  1k TC=0,0 
R_R16         N06610 N09169  10k TC=0,0 
C_C6         0 N06610  10uF  TC=0,0 
X_U2         N07605 N06610 VCC 0 OUT LM293/5_1/TI
R_R5         N07125 VCC  82k TC=0,0 
V_V2         VCC 0 9Vdc
C_C5         0 N07125  100nF  TC=0,0 
X_U3A         N07125 5V VCC 0 5V TL074/301/TI
R_R6         0 N07125  100k TC=0,0 
C_C2         0 VCC  100nF  TC=0,0 
R_R17         N07605 N07596  10k TC=0,0 
R_R20         OUT N07605  220k TC=0,0 
C_C7         N09169 N07596  2.2uF  TC=0,0 
C_C4         N06754 N29302 C_C4 50u  TC=0,0 
.model        C_C4 CAP C=1 DEV=5% TC1=0 TC2=0 VC1=0 VC2=0
X_U1B         N29226 N29302 VCC 0 N06754 LM324
C_C3         N29302 N292641 C_C3 50u  TC=0,0 
.model        C_C3 CAP C=1 DEV=5% TC1=0 TC2=0 VC1=0 VC2=0
R_R21         N29302 N06754 R_R21 910 TC=0,0 
.model        R_R21 RES R=1 DEV=5% TC1=0 TC2=0
R_R3         N292641 N06746 R_R3 6.37k TC=0,0 
.model        R_R3 RES R=1 DEV=5% TC1=0 TC2=0
R_R9         5V N29226  10k TC=0,0 
R_R32         N39089 N38531  10k TC=0,0 
C_C9         0 N38365 C_C9 50n  TC=0,0 
.model        C_C9 CAP C=1 DEV=5% TC1=0 TC2=0 VC1=0 VC2=0
R_R33         OUT N39089  100k TC=0,0 
X_U7         N39089 N39003 VCC 0 OUT LM293/5_1/TI
C_C11         0 N38607 C_C11 50n  TC=0,0 
.model        C_C11 CAP C=1 DEV=5% TC1=0 TC2=0 VC1=0 VC2=0
C_C8         N38293 N38289 C_C8 50u  TC=0,0 
.model        C_C8 CAP C=1 DEV=5% TC1=0 TC2=0 VC1=0 VC2=0
R_R26         0 N38727 R_R26 680 TC=0,0 
.model        R_R26 RES R=1 DEV=5% TC1=0 TC2=0
R_R23         N38289 N38293 R_R23 910 TC=0,0 
.model        R_R23 RES R=1 DEV=5% TC1=0 TC2=0
C_C15         0 N39003  10uF  TC=0,0 
C_C12         N38653 N38727 C_C12 0.001  TC=0,0 
.model        C_C12 CAP C=1 DEV=5% TC1=0 TC2=0 VC1=0 VC2=0
R_R31         N39003 N38531  10k TC=0,0 
C_C10         N38531 N38535 C_C10 50u  TC=0,0 
.model        C_C10 CAP C=1 DEV=5% TC1=0 TC2=0 VC1=0 VC2=0
X_U5C         N38727 N38713 VCC 0 N38713 LM324
R_R25         N38607 N38293 R_R25 6.37k TC=0,0 
.model        R_R25 RES R=1 DEV=5% TC1=0 TC2=0
R_R22         N38365 N38713 R_R22 6.37k TC=0,0 
.model        R_R22 RES R=1 DEV=5% TC1=0 TC2=0
R_R24         N38365 N38289 R_R24 800 TC=0,0 
.model        R_R24 RES R=1 DEV=5% TC1=0 TC2=0
R_R30         OUT 5V  1k TC=0,0 
R_R8         N38607 N38535 R_R8 800 TC=0,0 
.model        R_R8 RES R=1 DEV=5% TC1=0 TC2=0
R_R10         N38823 5V R_R10 1k TC=0,0 
.model        R_R10 RES R=1 DEV=5% TC1=0 TC2=0
R_R11         N38859 5V R_R11 1k TC=0,0 
.model        R_R11 RES R=1 DEV=5% TC1=0 TC2=0
V_V3         N38653 0   PWL   
+ REPEAT FOREVER  
+ FILE "C:\Users\N\Documents\GitHub\Plethysmograph\TEK0003formatted_crop.csv" 
+ ENDREPEAT
X_U5B         N38859 N38535 VCC V- N38531 LM324
X_U4B         N38823 N38289 VCC 0 N38293 LM324
R_R7         N38535 N38531 R_R7 910 TC=0,0 
.model        R_R7 RES R=1 DEV=5% TC1=0 TC2=0
R_R34         N38727 5V R_R34 680 TC=0,0 
.model        R_R34 RES R=1 DEV=5% TC1=0 TC2=0

**** RESUMING time.cir ****
.END

**** 08/31/16 23:07:33 ****** PSpice 17.2.0 (March 2016) ****** ID# 0 ********

 ** Profile: "SCHEMATIC1-time"  [ C:\Users\N\Documents\GitHub\Plethysmograph\Orcad files\Plethysmograph_amp_blocks_filter_TS\plethysm


 ****     Diode MODEL PARAMETERS


******************************************************************************




               X_U2.DX         X_U3A.DX        X_U1B.dx        X_U1B.dy        
          IS  800.000000E-18  800.000000E-18  800.000000E-18  800.000000E-18 
          RS                                    1               1.000000E-03 
         CJO                                                   10.000000E-12 


               X_U7.DX         X_U5C.dx        X_U5C.dy        X_U5B.dx        
          IS  800.000000E-18  800.000000E-18  800.000000E-18  800.000000E-18 
          RS                    1               1.000000E-03    1            
         CJO                                   10.000000E-12                 


               X_U5B.dy        X_U4B.dx        X_U4B.dy        
          IS  800.000000E-18  800.000000E-18  800.000000E-18 
          RS    1.000000E-03    1               1.000000E-03 
         CJO   10.000000E-12                   10.000000E-12 


**** 08/31/16 23:07:33 ****** PSpice 17.2.0 (March 2016) ****** ID# 0 ********

 ** Profile: "SCHEMATIC1-time"  [ C:\Users\N\Documents\GitHub\Plethysmograph\Orcad files\Plethysmograph_amp_blocks_filter_TS\plethysm


 ****     BJT MODEL PARAMETERS


******************************************************************************




               X_U2.QIN        X_U2.QMI        X_U2.QMO        X_U2.QOC        
               PNP             NPN             NPN             NPN             
       LEVEL    1               1               1               1            
          IS  800.000000E-18  800.000000E-18  800.000000E-18  800.000000E-18 
          BF    2.000000E+03    1.002000E+03    1.000000E+03   20.290000E+03 
          NF    1               1               1               1            
          BR    1               1               1               1            
          NR    1               1               1               1            
         ISS    0               0               0               0            
          RE    0               0               0               0            
          RC    0               0               0               0            
         CJE    0               0               0               0            
         VJE     .75             .75             .75             .75         
         CJC    0               0               1.000000E-15    1.000000E-15 
         VJC     .75             .75             .75             .75         
         MJC     .33             .33             .33             .33         
        XCJC    1               1               1               1            
         CJS    0               0               0               0            
         VJS     .75             .75             .75             .75         
          TF                                                  942.600000E-12 
          TR                                  807.400000E-09  543.800000E-09 
          KF    0               0               0               0            
          AF    1               1               1               1            
          CN    2.2             2.42            2.42            2.42         
           D     .52             .87             .87             .87         


               X_U1B.qx        X_U7.QIN        X_U7.QMI        X_U7.QMO        
               PNP             PNP             NPN             NPN             
       LEVEL    1               1               1               1            
          IS  800.000000E-18  800.000000E-18  800.000000E-18  800.000000E-18 
          BF  166.7             2.000000E+03    1.002000E+03    1.000000E+03 
          NF    1               1               1               1            
          BR    1               1               1               1            
          NR    1               1               1               1            
         ISS    0               0               0               0            
          RE    0               0               0               0            
          RC    0               0               0               0            
         CJE    0               0               0               0            
         VJE     .75             .75             .75             .75         
         CJC    0               0               0               1.000000E-15 
         VJC     .75             .75             .75             .75         
         MJC     .33             .33             .33             .33         
        XCJC    1               1               1               1            
         CJS    0               0               0               0            
         VJS     .75             .75             .75             .75         
          TR                                                  807.400000E-09 
          KF    0               0               0               0            
          AF    1               1               1               1            
          CN    2.2             2.2             2.42            2.42         
           D     .52             .52             .87             .87         


               X_U7.QOC        X_U5C.qx        X_U5B.qx        X_U4B.qx        
               NPN             PNP             PNP             PNP             
       LEVEL    1               1               1               1            
          IS  800.000000E-18  800.000000E-18  800.000000E-18  800.000000E-18 
          BF   20.290000E+03  166.7           166.7           166.7          
          NF    1               1               1               1            
          BR    1               1               1               1            
          NR    1               1               1               1            
         ISS    0               0               0               0            
          RE    0               0               0               0            
          RC    0               0               0               0            
         CJE    0               0               0               0            
         VJE     .75             .75             .75             .75         
         CJC    1.000000E-15    0               0               0            
         VJC     .75             .75             .75             .75         
         MJC     .33             .33             .33             .33         
        XCJC    1               1               1               1            
         CJS    0               0               0               0            
         VJS     .75             .75             .75             .75         
          TF  942.600000E-12                                                 
          TR  543.800000E-09                                                 
          KF    0               0               0               0            
          AF    1               1               1               1            
          CN    2.42            2.2             2.2             2.2          
           D     .87             .52             .52             .52         


**** 08/31/16 23:07:33 ****** PSpice 17.2.0 (March 2016) ****** ID# 0 ********

 ** Profile: "SCHEMATIC1-time"  [ C:\Users\N\Documents\GitHub\Plethysmograph\Orcad files\Plethysmograph_amp_blocks_filter_TS\plethysm


 ****     Junction FET MODEL PARAMETERS


******************************************************************************




               X_U3A.JX        
               PJF             
         VTO   -1            
        BETA  270.100000E-06 
          IS   15.000000E-12 


**** 08/31/16 23:07:33 ****** PSpice 17.2.0 (March 2016) ****** ID# 0 ********

 ** Profile: "SCHEMATIC1-time"  [ C:\Users\N\Documents\GitHub\Plethysmograph\Orcad files\Plethysmograph_amp_blocks_filter_TS\plethysm


 ****     Resistor MODEL PARAMETERS


******************************************************************************




               R_R21           R_R3            R_R26           R_R23           
           R    1               1               1               1            


               R_R25           R_R22           R_R24           R_R8            
           R    1               1               1               1            


               R_R10           R_R11           R_R7            R_R34           
           R    1               1               1               1            


**** 08/31/16 23:07:33 ****** PSpice 17.2.0 (March 2016) ****** ID# 0 ********

 ** Profile: "SCHEMATIC1-time"  [ C:\Users\N\Documents\GitHub\Plethysmograph\Orcad files\Plethysmograph_amp_blocks_filter_TS\plethysm


 ****     Capacitor MODEL PARAMETERS


******************************************************************************




               C_C4            C_C3            C_C9            C_C11           
           C    1               1               1               1            


               C_C8            C_C12           C_C10           
           C    1               1               1            


**** 08/31/16 23:07:33 ****** PSpice 17.2.0 (March 2016) ****** ID# 0 ********

 ** Profile: "SCHEMATIC1-time"  [ C:\Users\N\Documents\GitHub\Plethysmograph\Orcad files\Plethysmograph_amp_blocks_filter_TS\plethysm


 ****     Current Controlled Switch MODEL PARAMETERS


******************************************************************************




               X_U1B.sw2       X_U1B.sw1       X_U1B.sw3       X_U1B.sw4       
         RON    1               1               1               1            
        ROFF   10.000000E+06   10.000000E+06   10.000000E+06   10.000000E+06 
         ION    0              -1.000000E-06   -1.000000E-06    0            
        IOFF   -1.000000E-06    0               0              -1.000000E-06 


               X_U5C.sw2       X_U5C.sw1       X_U5C.sw3       X_U5C.sw4       
         RON    1               1               1               1            
        ROFF   10.000000E+06   10.000000E+06   10.000000E+06   10.000000E+06 
         ION    0              -1.000000E-06   -1.000000E-06    0            
        IOFF   -1.000000E-06    0               0              -1.000000E-06 


               X_U5B.sw2       X_U5B.sw1       X_U5B.sw3       X_U5B.sw4       
         RON    1               1               1               1            
        ROFF   10.000000E+06   10.000000E+06   10.000000E+06   10.000000E+06 
         ION    0              -1.000000E-06   -1.000000E-06    0            
        IOFF   -1.000000E-06    0               0              -1.000000E-06 


               X_U4B.sw2       X_U4B.sw1       X_U4B.sw3       X_U4B.sw4       
         RON    1               1               1               1            
        ROFF   10.000000E+06   10.000000E+06   10.000000E+06   10.000000E+06 
         ION    0              -1.000000E-06   -1.000000E-06    0            
        IOFF   -1.000000E-06    0               0              -1.000000E-06 


**** 08/31/16 23:07:33 ****** PSpice 17.2.0 (March 2016) ****** ID# 0 ********

 ** Profile: "SCHEMATIC1-time"  [ C:\Users\N\Documents\GitHub\Plethysmograph\Orcad files\Plethysmograph_amp_blocks_filter_TS\plethysm


 ****     INITIAL TRANSIENT SOLUTION       TEMPERATURE =   27.000 DEG C


******************************************************************************



 NODE   VOLTAGE     NODE   VOLTAGE     NODE   VOLTAGE     NODE   VOLTAGE


(   5V)    4.9450  (   V-)    7.0159  (  OUT)     .1022  (  VCC)    9.0000      

(N06610)   47.4860 (N06746)    4.9720 (N06754)    4.9451 (N07125)    4.9451     

(N07596)   49.4510 (N07605)   47.3060 (N09169)   47.4860 (N29226)    4.9455     

(N29302)    4.9451 (N38289)    4.9447 (N38293)    5.2584 (N38365)    4.6690     

(N38531)    8.3160 (N38535)    7.9717 (N38607)    7.6689 (N38653)    4.9720     

(N38713)    2.4730 (N38727)    2.4725 (N38823)    4.9451 (N38859)    5.1780     

(N39003)    8.3160 (N39089)    7.5698 (X_U2.7)   48.7170 (X_U2.8)     .4810     

(X_U2.9)     .7630 (X_U7.7)    8.9806 (X_U7.8)     .2588 (X_U7.9)     .7630     

(N292641)    4.9720                   (X_U1B.6)-83.90E-06                       

(X_U1B.7)    4.9451                   (X_U1B.8)    4.9451                       

(X_U1B.9)    0.0000                   (X_U1B.a)    9.0000                       

(X_U1B.b) 49.40E-09                   (X_U2.10)     .7630                       

(X_U2.11)     .7630                   (X_U2.21)   48.0560                       

(X_U2.22)   48.2360                   (X_U3A.6)-621.0E-06                       

(X_U3A.7)    6.9083                   (X_U3A.8)    6.9083                       

(X_U3A.9)    0.0000                   (X_U4B.6)-142.5E-06                       

(X_U4B.7)    5.2567                   (X_U4B.8)    5.2567                       

(X_U4B.9)    0.0000                   (X_U4B.a) 34.63E-06                       

(X_U4B.b) 33.73E-06                   (X_U5B.6)  -21.7890                       

(X_U5B.7)   10.3500                   (X_U5B.8)   10.3500                       

(X_U5B.9)    0.0000                   (X_U5B.a)    8.9593                       

(X_U5B.b)    -.0407                   (X_U5C.6) 387.0E-06                       

(X_U5C.7)    2.4558                   (X_U5C.8)    2.4558                       

(X_U5C.9)    0.0000                   (X_U5C.a) 345.7E-06                       

(X_U5C.b) 344.8E-06                   (X_U7.10)     .7630                       

(X_U7.11)     .7630                   (X_U7.21)    8.3198                       

(X_U7.22)    9.0660                   (X_U1B.10)    5.5529                      

(X_U1B.11)     .0397                  (X_U1B.12)     .0394                      

(X_U1B.13)    5.5390                  (X_U1B.14)    5.5391                      

(X_U1B.53)    7.5000                  (X_U1B.54)     .8220                      

(X_U1B.90)-44.94E-06                  (X_U1B.91)   40.0000                      

(X_U1B.92)  -40.0000                  (X_U1B.99)    4.5000                      

(X_U3A.10)    4.5458                  (X_U3A.11)     .3447                      

(X_U3A.12)     .3447                  (X_U3A.53)    6.8000                      

(X_U3A.54)    2.2000                  (X_U3A.90)   13.0890                      

(X_U3A.91)   25.0000                  (X_U3A.92)  -25.0000                      

(X_U3A.99)    4.5000                  (X_U4B.10)    5.5525                      

(X_U4B.11)     .0397                  (X_U4B.12)     .0394                      

(X_U4B.13)    5.5386                  (X_U4B.14)    5.5387                      

(X_U4B.53)    7.5000                  (X_U4B.54)     .8220                      

(X_U4B.90)    -.0337                  (X_U4B.91)   40.0000                      

(X_U4B.92)  -40.0000                  (X_U4B.99)    4.5000                      

(X_U5B.10)    5.8903                  (X_U5B.11)    7.0159                      

(X_U5B.12)    5.8606                  (X_U5B.13)    5.8903                      

(X_U5B.14)    5.8621                  (X_U5B.53)    7.5000                      

(X_U5B.54)    7.8379                  (X_U5B.90)   40.6830                      

(X_U5B.91)   40.0000                  (X_U5B.92)  -40.0000                      

(X_U5B.99)    8.0079                  (X_U5C.10)    3.0808                      

(X_U5C.11)     .0398                  (X_U5C.12)     .0403                      

(X_U5C.13)    3.0669                  (X_U5C.14)    3.0667                      

(X_U5C.53)    7.5000                  (X_U5C.54)     .8220                      

