
**** 09/13/16 20:44:40 ****** PSpice 17.2.0 (March 2016) ****** ID# 0 ********

 ** Profile: "SCHEMATIC1-time"  [ c:\users\n\documents\github\plethysmograph\orcad files\plethysmograph_tl074\plethysmograph_amp_bloc


 ****     CIRCUIT DESCRIPTION


******************************************************************************




** Creating circuit file "time.cir" 
** WARNING: THIS AUTOMATICALLY GENERATED FILE MAY BE OVERWRITTEN BY SUBSEQUENT SIMULATIONS

*Libraries: 
* Profile Libraries :
* Local Libraries :
* From [PSPICE NETLIST] section of C:\Cadence\SPB_Data\cdssetup\OrCAD_PSpice\17.2.0\PSpice.ini file:
.lib "nom.lib" 
.lib "C:\Cadence\Company\OrCAD_PSpice\Models\pspice_demokit.lib" 
.lib "C:\Cadence\Company\OrCAD_PSpice\Models\sample_models.lib" 

*Analysis directives: 
.TRAN  0 3 0 
.OPTIONS ADVCONV
.PROBE64 V(alias(*)) I(alias(*)) W(alias(*)) D(alias(*)) NOISE(alias(*)) 
.INC "..\SCHEMATIC1.net" 



**** INCLUDING SCHEMATIC1.net ****
* source PLETHYSMOGRAPH_AMP_BLOCKS_FILTER_TL074
V_V1         N06746 0   PWL   
+ REPEAT FOREVER  
+ FILE "C:\Users\N\Documents\GitHub\Plethysmograph\TEK0003formatted_crop.csv" 
+ ENDREPEAT
R_R4         OUT 5V  1k TC=0,0 
R_R16         N06610 N09169  10k TC=0,0 
C_C6         5V N06610  10uF  TC=0,0 
X_U2         N07605 N06610 VCC 0 OUT LM293/5_1/TI
R_R5         N07125 VCC  82k TC=0,0 
V_V2         VCC 0 9Vdc
C_C5         0 N07125  100nF  TC=0,0 
X_U3A         N07125 5V VCC 0 5V TL074/301/TI
R_R6         0 N07125  100k TC=0,0 
C_C2         0 VCC  100nF  TC=0,0 
R_R17         N07605 N07596  10k TC=0,0 
C_C7         N09169 N07596  2.2uF  TC=0,0 
C_C1         N06746 N43229 C_C1 0.001  TC=0,0 
.model        C_C1 CAP C=1 DEV=5% TC1=0 TC2=0 VC1=0 VC2=0
R_R34         N43429 N43443 R_R34 6k TC=0,0 
.model        R_R34 RES R=1 DEV=5% TC1=0 TC2=0
R_R18         N43219 N43429 R_R18 6k TC=0,0 
.model        R_R18 RES R=1 DEV=5% TC1=0 TC2=0
C_C17         N43391 N43429 C_C17 10u  TC=0,0 
.model        C_C17 CAP C=1 DEV=5% TC1=0 TC2=0 VC1=0 VC2=0
C_C13         5V N43443 C_C13 10u  TC=0,0 
.model        C_C13 CAP C=1 DEV=5% TC1=0 TC2=0 VC1=0 VC2=0
R_R1         5V N43229 R_R1 510 TC=0,0 
.model        R_R1 RES R=1 DEV=5% TC1=0 TC2=0
R_R35         N47818 N07596  22k TC=0,0 
R_R36         5V N47818  1k TC=0,0 
X_U4A         N43229 N43219 VCC 0 N43219 TL074/301/TI
X_U4B         N43443 N43391 VCC 0 N43391 TL074/301/TI
X_U4C         N43391 N47818 VCC 0 N07596 TL074/301/TI
X_U4D         5V N49884 VCC 0 N49884 TL074/301/TI

**** RESUMING time.cir ****
.END

**** 09/13/16 20:44:40 ****** PSpice 17.2.0 (March 2016) ****** ID# 0 ********

 ** Profile: "SCHEMATIC1-time"  [ c:\users\n\documents\github\plethysmograph\orcad files\plethysmograph_tl074\plethysmograph_amp_bloc


 ****     Diode MODEL PARAMETERS


******************************************************************************




               X_U2.DX         X_U3A.DX        X_U4A.DX        X_U4B.DX        
          IS  800.000000E-18  800.000000E-18  800.000000E-18  800.000000E-18 


               X_U4C.DX        X_U4D.DX        
          IS  800.000000E-18  800.000000E-18 


**** 09/13/16 20:44:40 ****** PSpice 17.2.0 (March 2016) ****** ID# 0 ********

 ** Profile: "SCHEMATIC1-time"  [ c:\users\n\documents\github\plethysmograph\orcad files\plethysmograph_tl074\plethysmograph_amp_bloc


 ****     BJT MODEL PARAMETERS


******************************************************************************




               X_U2.QIN        X_U2.QMI        X_U2.QMO        X_U2.QOC        
               PNP             NPN             NPN             NPN             
       LEVEL    1               1               1               1            
          IS  800.000000E-18  800.000000E-18  800.000000E-18  800.000000E-18 
          BF    2.000000E+03    1.002000E+03    1.000000E+03   20.290000E+03 
          NF    1               1               1               1            
          BR    1               1               1               1            
          NR    1               1               1               1            
         ISS    0               0               0               0            
          RE    0               0               0               0            
          RC    0               0               0               0            
         CJE    0               0               0               0            
         VJE     .75             .75             .75             .75         
         CJC    0               0               1.000000E-15    1.000000E-15 
         VJC     .75             .75             .75             .75         
         MJC     .33             .33             .33             .33         
        XCJC    1               1               1               1            
         CJS    0               0               0               0            
         VJS     .75             .75             .75             .75         
          TF                                                  942.600000E-12 
          TR                                  807.400000E-09  543.800000E-09 
          KF    0               0               0               0            
          AF    1               1               1               1            
          CN    2.2             2.42            2.42            2.42         
           D     .52             .87             .87             .87         


**** 09/13/16 20:44:40 ****** PSpice 17.2.0 (March 2016) ****** ID# 0 ********

 ** Profile: "SCHEMATIC1-time"  [ c:\users\n\documents\github\plethysmograph\orcad files\plethysmograph_tl074\plethysmograph_amp_bloc


 ****     Junction FET MODEL PARAMETERS


******************************************************************************




               X_U3A.JX        X_U4A.JX        X_U4B.JX        X_U4C.JX        
               PJF             PJF             PJF             PJF             
         VTO   -1              -1              -1              -1            
        BETA  270.100000E-06  270.100000E-06  270.100000E-06  270.100000E-06 
          IS   15.000000E-12   15.000000E-12   15.000000E-12   15.000000E-12 


               X_U4D.JX        
               PJF             
         VTO   -1            
        BETA  270.100000E-06 
          IS   15.000000E-12 


**** 09/13/16 20:44:40 ****** PSpice 17.2.0 (March 2016) ****** ID# 0 ********

 ** Profile: "SCHEMATIC1-time"  [ c:\users\n\documents\github\plethysmograph\orcad files\plethysmograph_tl074\plethysmograph_amp_bloc


 ****     Resistor MODEL PARAMETERS


******************************************************************************




               R_R34           R_R18           R_R1            
           R    1               1               1            


**** 09/13/16 20:44:40 ****** PSpice 17.2.0 (March 2016) ****** ID# 0 ********

 ** Profile: "SCHEMATIC1-time"  [ c:\users\n\documents\github\plethysmograph\orcad files\plethysmograph_tl074\plethysmograph_amp_bloc


 ****     Capacitor MODEL PARAMETERS


******************************************************************************




               C_C1            C_C17           C_C13           
           C    1               1               1            


**** 09/13/16 20:44:40 ****** PSpice 17.2.0 (March 2016) ****** ID# 0 ********

 ** Profile: "SCHEMATIC1-time"  [ c:\users\n\documents\github\plethysmograph\orcad files\plethysmograph_tl074\plethysmograph_amp_bloc


 ****     INITIAL TRANSIENT SOLUTION       TEMPERATURE =   27.000 DEG C


******************************************************************************



 NODE   VOLTAGE     NODE   VOLTAGE     NODE   VOLTAGE     NODE   VOLTAGE


(   5V)    4.9450  (  OUT)     .1015  (  VCC)    9.0000  (N06610)    5.1810     

(N06746)    4.9720 (N07125)    4.9451 (N07596)    4.9448 (N07605)    4.9453     

(N09169)    5.1810 (N43219)    4.9450 (N43229)    4.9450 (N43391)    4.9450     

(N43429)    4.9450 (N43443)    4.9450 (N47818)    4.9450 (N49884)    4.9450     

(X_U2.7)    6.3562 (X_U2.8)     .4251 (X_U2.9)     .7623 (X_U2.10)     .7623    

(X_U2.11)     .7623                   (X_U2.21)    5.6953                       

(X_U2.22)    5.9310                   (X_U3A.6)-269.5E-06                       

(X_U3A.7)    5.6716                   (X_U3A.8)    5.6716                       

(X_U3A.9)    0.0000                   (X_U4A.6)-63.02E-06                       

(X_U4A.7)    4.9450                   (X_U4A.8)    4.9450                       

(X_U4A.9)    0.0000                   (X_U4B.6)-63.02E-06                       

(X_U4B.7)    4.9450                   (X_U4B.8)    4.9450                       

(X_U4B.9)    0.0000                   (X_U4C.6)-62.99E-06                       

(X_U4C.7)    4.9448                   (X_U4C.8)    4.9448                       

(X_U4C.9)    0.0000                   (X_U4D.6)-63.02E-06                       

(X_U4D.7)    4.9450                   (X_U4D.8)    4.9450                       

(X_U4D.9)    0.0000                   (X_U3A.10)    4.5458                      

(X_U3A.11)     .3447                  (X_U3A.12)     .3447                      

(X_U3A.53)    6.8000                  (X_U3A.54)    2.2000                      

(X_U3A.90)    4.8436                  (X_U3A.91)   25.0000                      

(X_U3A.92)  -25.0000                  (X_U3A.99)    4.5000                      

(X_U4A.10)    4.5458                  (X_U4A.11)     .3447                      

(X_U4A.12)     .3447                  (X_U4A.53)    6.8000                      

(X_U4A.54)    2.2000                  (X_U4A.90) 70.89E-09                      

(X_U4A.91)   25.0000                  (X_U4A.92)  -25.0000                      

(X_U4A.99)    4.5000                  (X_U4B.10)    4.5458                      

(X_U4B.11)     .3447                  (X_U4B.12)     .3447                      

(X_U4B.53)    6.8000                  (X_U4B.54)    2.2000                      

(X_U4B.90) 72.24E-09                  (X_U4B.91)   25.0000                      

(X_U4B.92)  -25.0000                  (X_U4B.99)    4.5000                      

(X_U4C.10)    4.5458                  (X_U4C.11)     .3447                      

(X_U4C.12)     .3447                  (X_U4C.53)    6.8000                      

(X_U4C.54)    2.2000                  (X_U4C.90)-59.98E-06                      

(X_U4C.91)   25.0000                  (X_U4C.92)  -25.0000                      

(X_U4C.99)    4.5000                  (X_U4D.10)    4.5458                      

(X_U4D.11)     .3447                  (X_U4D.12)     .3447                      

(X_U4D.53)    6.8000                  (X_U4D.54)    2.2000                      

(X_U4D.90) 35.89E-09                  (X_U4D.91)   25.0000                      

(X_U4D.92)  -25.0000                  (X_U4D.99)    4.5000                  




    VOLTAGE SOURCE CURRENTS
    NAME         CURRENT

    V_V1         0.000E+00
    V_V2        -2.222E-02
    X_U2.VI1     4.996E-08
    X_U2.VI2     0.000E+00
    X_U2.V1      9.993E-05
    X_U3A.VB    -2.695E-09
    X_U3A.VC     1.856E-12
    X_U3A.VE     2.746E-12
    X_U3A.VLIM   4.844E-03
    X_U3A.VLP   -2.016E-11
    X_U3A.VLN   -2.984E-11
    X_U4A.VB    -6.302E-10
    X_U4A.VC     1.856E-12
    X_U4A.VE     2.746E-12
    X_U4A.VLIM   7.089E-11
    X_U4A.VLP   -2.500E-11
    X_U4A.VLN   -2.500E-11
    X_U4B.VB    -6.302E-10
    X_U4B.VC     1.856E-12
    X_U4B.VE     2.746E-12
    X_U4B.VLIM   7.224E-11
    X_U4B.VLP   -2.500E-11
    X_U4B.VLN   -2.500E-11
    X_U4C.VB    -6.299E-10
    X_U4C.VC     1.856E-12
    X_U4C.VE     2.746E-12
    X_U4C.VLIM  -5.998E-08
    X_U4C.VLP   -2.500E-11
    X_U4C.VLN   -2.500E-11
    X_U4D.VB    -6.302E-10
    X_U4D.VC     1.856E-12
    X_U4D.VE     2.746E-12
    X_U4D.VLIM   3.589E-11
    X_U4D.VLP   -2.500E-11
    X_U4D.VLN   -2.500E-11

    TOTAL POWER DISSIPATION   2.00E-01  WATTS



          JOB CONCLUDED

**** 09/13/16 20:44:40 ****** PSpice 17.2.0 (March 2016) ****** ID# 0 ********

 ** Profile: "SCHEMATIC1-time"  [ c:\users\n\documents\github\plethysmograph\orcad files\plethysmograph_tl074\plethysmograph_amp_bloc


 ****     JOB STATISTICS SUMMARY


******************************************************************************



  Total job time (using Solver 1)   =         .67
